Freq.	V(n023)
1.00000000000000e+000	(6.16512179615625e+001dB,-8.25724315282171e-004°)
1.00230523807790e+000	(6.16512179615605e+001dB,-8.27627806415545e-004°)
1.00461579027840e+000	(6.16512179615577e+001dB,-8.29535685549098e-004°)
1.00693166885180e+000	(6.16512179615536e+001dB,-8.31447962798134e-004°)
1.00925288607668e+000	(6.16512179615465e+001dB,-8.33364648301228e-004°)
1.01157945425990e+000	(6.16512179615437e+001dB,-8.35285752221127e-004°)
1.01391138573668e+000	(6.16512179615366e+001dB,-8.37211284742533e-004°)
1.01624869287070e+000	(6.16512179615337e+001dB,-8.39141256075230e-004°)
1.01859138805412e+000	(6.16512179615309e+001dB,-8.41075676451328e-004°)
1.02093948370768e+000	(6.16512179615266e+001dB,-8.43014556126802e-004°)
1.02329299228075e+000	(6.16512179615237e+001dB,-8.44957905381668e-004°)
1.02565192625141e+000	(6.16512179615351e+001dB,-8.46905734520615e-004°)
1.02801629812647e+000	(6.16512179615321e+001dB,-8.48858053868084e-004°)
1.03038612044162e+000	(6.16512179615277e+001dB,-8.50814873776303e-004°)
1.03276140576140e+000	(6.16512179615076e+001dB,-8.52776204618753e-004°)
1.03514216667934e+000	(6.16512179615161e+001dB,-8.54742056798534e-004°)
1.03752841581801e+000	(6.16512179614973e+001dB,-8.56712440732956e-004°)
1.03992016582906e+000	(6.16512179614935e+001dB,-8.58687366872921e-004°)
1.04231742939330e+000	(6.16512179614897e+001dB,-8.60666845687823e-004°)
1.04472021922080e+000	(6.16512179615010e+001dB,-8.62650887674137e-004°)
1.04712854805090e+000	(6.16512179614814e+001dB,-8.64639503346555e-004°)
1.04954242865232e+000	(6.16512179614783e+001dB,-8.66632703253169e-004°)
1.05196187382322e+000	(6.16512179614880e+001dB,-8.68630497961375e-004°)
1.05438689639126e+000	(6.16512179614856e+001dB,-8.70632898060804e-004°)
1.05681750921366e+000	(6.16512179614645e+001dB,-8.72639914167338e-004°)
1.05925372517729e+000	(6.16512179614627e+001dB,-8.74651556925750e-004°)
1.06169555719872e+000	(6.16512179614703e+001dB,-8.76667837000570e-004°)
1.06414301822431e+000	(6.16512179614670e+001dB,-8.78688765079919e-004°)
1.06659612123026e+000	(6.16512179614616e+001dB,-8.80714351879418e-004°)
1.06905487922266e+000	(6.16512179614447e+001dB,-8.82744608137573e-004°)
1.07151930523761e+000	(6.16512179614536e+001dB,-8.84779544622375e-004°)
1.07398941234124e+000	(6.16512179614488e+001dB,-8.86819172118854e-004°)
1.07646521362983e+000	(6.16512179614354e+001dB,-8.88863501441434e-004°)
1.07894672222983e+000	(6.16512179614270e+001dB,-8.90912543430328e-004°)
1.08143395129794e+000	(6.16512179614243e+001dB,-8.92966308949408e-004°)
1.08392691402120e+000	(6.16512179614223e+001dB,-8.95024808887035e-004°)
1.08642562361706e+000	(6.16512179613566e+001dB,-8.97088054150573e-004°)
1.08893009333343e+000	(6.16512179613509e+001dB,-8.99156055691819e-004°)
1.09144033644876e+000	(6.16512179613482e+001dB,-9.01228824469251e-004°)
1.09395636627209e+000	(6.16512179613418e+001dB,-9.03306371471839e-004°)
1.09647819614318e+000	(6.16512179613382e+001dB,-9.05388707715159e-004°)
1.09900583943252e+000	(6.16512179613311e+001dB,-9.07475844238918e-004°)
1.10153930954141e+000	(6.16512179613275e+001dB,-9.09567792109626e-004°)
1.10407861990207e+000	(6.16512179613246e+001dB,-9.11664562418300e-004°)
1.10662378397766e+000	(6.16512179613174e+001dB,-9.13766166281297e-004°)
1.10917481526240e+000	(6.16512179613145e+001dB,-9.15872614841962e-004°)
1.11173172728159e+000	(6.16512179613108e+001dB,-9.17983919267990e-004°)
1.11429453359173e+000	(6.16512179613071e+001dB,-9.20100090753375e-004°)
1.11686324778056e+000	(6.16512179613041e+001dB,-9.22221140517914e-004°)
1.11943788346715e+000	(6.16512179612982e+001dB,-9.24347079806845e-004°)
1.12201845430196e+000	(6.16512179612966e+001dB,-9.26477919892410e-004°)
1.12460497396692e+000	(6.16512179612870e+001dB,-9.28613672070865e-004°)
1.12719745617551e+000	(6.16512179612832e+001dB,-9.30754347667159e-004°)
1.12979591467280e+000	(6.16512179612780e+001dB,-9.32899958030192e-004°)
1.13240036323556e+000	(6.16512179612734e+001dB,-9.35050514536007e-004°)
1.13501081567231e+000	(6.16512179612695e+001dB,-9.37206028586650e-004°)
1.13762728582343e+000	(6.16512179612620e+001dB,-9.39366511609967e-004°)
1.14024978756117e+000	(6.16512179612516e+001dB,-9.41531975060704e-004°)
1.14287833478977e+000	(6.16512179612433e+001dB,-9.43702430420480e-004°)
1.14551294144553e+000	(6.16512179612386e+001dB,-9.45877889196973e-004°)
1.14815362149688e+000	(6.16512179612339e+001dB,-9.48058362923872e-004°)
1.15080038894443e+000	(6.16512179612277e+001dB,-9.50243863161684e-004°)
1.15345325782109e+000	(6.16512179612229e+001dB,-9.52434401498000e-004°)
1.15611224219210e+000	(6.16512179612203e+001dB,-9.54629989546951e-004°)
1.15877735615512e+000	(6.16512179612147e+001dB,-9.56830638948753e-004°)
1.16144861384034e+000	(6.16512179612134e+001dB,-9.59036361371817e-004°)
1.16412602941049e+000	(6.16512179612085e+001dB,-9.61247168509802e-004°)
1.16680961706096e+000	(6.16512179612051e+001dB,-9.63463072084753e-004°)
1.16949939101987e+000	(6.16512179611965e+001dB,-9.65684083844434e-004°)
1.17219536554813e+000	(6.16512179611894e+001dB,-9.67910215565158e-004°)
1.17489755493953e+000	(6.16512179611846e+001dB,-9.70141479049722e-004°)
1.17760597352080e+000	(6.16512179611817e+001dB,-9.72377886128062e-004°)
1.18032063565173e+000	(6.16512179611752e+001dB,-9.74619448656773e-004°)
1.18304155572516e+000	(6.16512179611709e+001dB,-9.76866178520999e-004°)
1.18576874816716e+000	(6.16512179611658e+001dB,-9.79118087632369e-004°)
1.18850222743702e+000	(6.16512179611571e+001dB,-9.81375187929993e-004°)
1.19124200802737e+000	(6.16512179611519e+001dB,-9.83637491381553e-004°)
1.19398810446427e+000	(6.16512179611482e+001dB,-9.85905009981322e-004°)
1.19674053130724e+000	(6.16512179611394e+001dB,-9.88177755750753e-004°)
1.19949930314938e+000	(6.16512179611342e+001dB,-9.90455740740683e-004°)
1.20226443461741e+000	(6.16512179611296e+001dB,-9.92738977028409e-004°)
1.20503594037179e+000	(6.16512179611386e+001dB,-9.95027476720915e-004°)
1.20781383510678e+000	(6.16512179611355e+001dB,-9.97321251948682e-004°)
1.21059813355048e+000	(6.16512179611258e+001dB,-9.99620314873698e-004°)
1.21338885046497e+000	(6.16512179611226e+001dB,-1.00192467768685e-003°)
1.21618600064636e+000	(6.16512179611172e+001dB,-1.00423435260465e-003°)
1.21898959892486e+000	(6.16512179611097e+001dB,-1.00654935187276e-003°)
1.22179966016487e+000	(6.16512179611042e+001dB,-1.00886968776560e-003°)
1.22461619926504e+000	(6.16512179610987e+001dB,-1.01119537258508e-003°)
1.22743923115840e+000	(6.16512179610925e+001dB,-1.01352641866168e-003°)
1.23026877081238e+000	(6.16512179610834e+001dB,-1.01586283835410e-003°)
1.23310483322890e+000	(6.16512179610792e+001dB,-1.01820464405077e-003°)
1.23594743344451e+000	(6.16512179610736e+001dB,-1.02055184816691e-003°)
1.23879658653036e+000	(6.16512179610644e+001dB,-1.02290446314695e-003°)
1.24165230759241e+000	(6.16512179610609e+001dB,-1.02526250146529e-003°)
1.24451461177138e+000	(6.16512179610595e+001dB,-1.02762597562359e-003°)
1.24738351424294e+000	(6.16512179610517e+001dB,-1.02999489815176e-003°)
1.25025903021771e+000	(6.16512179610474e+001dB,-1.03236928161077e-003°)
1.25314117494141e+000	(6.16512179610407e+001dB,-1.03474913858867e-003°)
1.25602996369487e+000	(6.16512179610349e+001dB,-1.03713448170359e-003°)
1.25892541179416e+000	(6.16512179610262e+001dB,-1.03952532360194e-003°)
1.26182753459066e+000	(6.16512179610211e+001dB,-1.04192167696049e-003°)
1.26473634747115e+000	(6.16512179610130e+001dB,-1.04432355448371e-003°)
1.26765186585784e+000	(6.16512179610078e+001dB,-1.04673096890678e-003°)
1.27057410520854e+000	(6.16512179610040e+001dB,-1.04914393299344e-003°)
1.27350308101666e+000	(6.16512179609959e+001dB,-1.05156245953625e-003°)
1.27643880881134e+000	(6.16512179609891e+001dB,-1.05398656135872e-003°)
1.27938130415752e+000	(6.16512179609852e+001dB,-1.05641625131337e-003°)
1.28233058265602e+000	(6.16512179609763e+001dB,-1.05885154228119e-003°)
1.28528665994361e+000	(6.16512179609709e+001dB,-1.06129244717492e-003°)
1.28824955169313e+000	(6.16512179609655e+001dB,-1.06373897893554e-003°)
1.29121927361353e+000	(6.16512179609486e+001dB,-1.06619115053295e-003°)
1.29419584144998e+000	(6.16512179609431e+001dB,-1.06864897497109e-003°)
1.29717927098395e+000	(6.16512179609375e+001dB,-1.07111246527970e-003°)
1.30016957803328e+000	(6.16512179609291e+001dB,-1.07358163451963e-003°)
1.30316677845229e+000	(6.16512179609235e+001dB,-1.07605649578285e-003°)
1.30617088813183e+000	(6.16512179609172e+001dB,-1.07853706219041e-003°)
1.30918192299940e+000	(6.16512179609087e+001dB,-1.08102334689383e-003°)
1.31219989901920e+000	(6.16512179608987e+001dB,-1.08351536307525e-003°)
1.31522483219223e+000	(6.16512179608958e+001dB,-1.08601312394813e-003°)
1.31825673855640e+000	(6.16512179608872e+001dB,-1.08851664275378e-003°)
1.32129563418657e+000	(6.16512179608857e+001dB,-1.09102593276719e-003°)
1.32434153519466e+000	(6.16512179608792e+001dB,-1.09354100729086e-003°)
1.32739445772973e+000	(6.16512179608712e+001dB,-1.09606187965992e-003°)
1.33045441797808e+000	(6.16512179608603e+001dB,-1.09858856323957e-003°)
1.33352143216332e+000	(6.16512179608551e+001dB,-1.10112107142715e-003°)
1.33659551654643e+000	(6.16512179608506e+001dB,-1.10365941764911e-003°)
1.33967668742593e+000	(6.16512179608432e+001dB,-1.10620361536309e-003°)
1.34276496113786e+000	(6.16512179608372e+001dB,-1.10875367805868e-003°)
1.34586035405594e+000	(6.16512179608282e+001dB,-1.11130961925553e-003°)
1.34896288259164e+000	(6.16512179608221e+001dB,-1.11387145250572e-003°)
1.35207256319427e+000	(6.16512179608132e+001dB,-1.11643919139109e-003°)
1.35518941235103e+000	(6.16512179607998e+001dB,-1.11901284952535e-003°)
1.35831344658715e+000	(6.16512179608037e+001dB,-1.12159244055655e-003°)
1.36144468246594e+000	(6.16512179607888e+001dB,-1.12417797815683e-003°)
1.36458313658892e+000	(6.16512179607783e+001dB,-1.12676947603738e-003°)
1.36772882559584e+000	(6.16512179607698e+001dB,-1.12936694793780e-003°)
1.37088176616484e+000	(6.16512179607642e+001dB,-1.13197040762971e-003°)
1.37404197501251e+000	(6.16512179607543e+001dB,-1.13457986891548e-003°)
1.37720946889394e+000	(6.16512179607486e+001dB,-1.13719534563132e-003°)
1.38038426460288e+000	(6.16512179607436e+001dB,-1.13981685164375e-003°)
1.38356637897177e+000	(6.16512179607342e+001dB,-1.14244440085112e-003°)
1.38675582887188e+000	(6.16512179607284e+001dB,-1.14507800718542e-003°)
1.38995263121334e+000	(6.16512179607183e+001dB,-1.14771768460877e-003°)
1.39315680294529e+000	(6.16512179607088e+001dB,-1.15036344711710e-003°)
1.39636836105593e+000	(6.16512179607043e+001dB,-1.15301530873859e-003°)
1.39958732257261e+000	(6.16512179606977e+001dB,-1.15567328353217e-003°)
1.40281370456195e+000	(6.16512179606530e+001dB,-1.15833738558542e-003°)
1.40604752412990e+000	(6.16512179606462e+001dB,-1.16100762903320e-003°)
1.40928879842186e+000	(6.16512179606366e+001dB,-1.16368402802745e-003°)
1.41253754462274e+000	(6.16512179606305e+001dB,-1.16636659675904e-003°)
1.41579377995707e+000	(6.16512179606215e+001dB,-1.16905534944984e-003°)
1.41905752168908e+000	(6.16512179606146e+001dB,-1.17175030035602e-003°)
1.42232878712281e+000	(6.16512179606077e+001dB,-1.17445146376563e-003°)
1.42560759360218e+000	(6.16512179605978e+001dB,-1.17715885399959e-003°)
1.42889395851109e+000	(6.16512179605880e+001dB,-1.17987248541262e-003°)
1.43218789927353e+000	(6.16512179605845e+001dB,-1.18259237239297e-003°)
1.43548943335364e+000	(6.16512179605753e+001dB,-1.18531852935957e-003°)
1.43879857825583e+000	(6.16512179605689e+001dB,-1.18805097076740e-003°)
1.44211535152486e+000	(6.16512179605610e+001dB,-1.19078971110300e-003°)
1.44543977074592e+000	(6.16512179605538e+001dB,-1.19353476488722e-003°)
1.44877185354475e+000	(6.16512179605422e+001dB,-1.19628614667335e-003°)
1.45211161758773e+000	(6.16512179605321e+001dB,-1.19904387104972e-003°)
1.45545908058195e+000	(6.16512179605248e+001dB,-1.20180795263773e-003°)
1.45881426027534e+000	(6.16512179605174e+001dB,-1.20457840609187e-003°)
1.46217717445671e+000	(6.16512179605114e+001dB,-1.20735524610097e-003°)
1.46554784095590e+000	(6.16512179605040e+001dB,-1.21013848738722e-003°)
1.46892627764385e+000	(6.16512179604972e+001dB,-1.21292814470733e-003°)
1.47231250243271e+000	(6.16512179604875e+001dB,-1.21572423285135e-003°)
1.47570653327588e+000	(6.16512179604778e+001dB,-1.21852676664420e-003°)
1.47910838816819e+000	(6.16512179604616e+001dB,-1.22133576094376e-003°)
1.48251808514594e+000	(6.16512179604511e+001dB,-1.22415123064473e-003°)
1.48593564228699e+000	(6.16512179604434e+001dB,-1.22697319067407e-003°)
1.48936107771090e+000	(6.16512179604328e+001dB,-1.22980165599270e-003°)
1.49279440957898e+000	(6.16512179604250e+001dB,-1.23263664159769e-003°)
1.49623565609442e+000	(6.16512179604165e+001dB,-1.23547816251934e-003°)
1.49968483550236e+000	(6.16512179604086e+001dB,-1.23832623382332e-003°)
1.50314196609001e+000	(6.16512179604143e+001dB,-1.24118087061162e-003°)
1.50660706618673e+000	(6.16512179603906e+001dB,-1.24404208801319e-003°)
1.51008015416413e+000	(6.16512179603962e+001dB,-1.24690990120624e-003°)
1.51356124843619e+000	(6.16512179603724e+001dB,-1.24978432538725e-003°)
1.51705036745932e+000	(6.16512179603801e+001dB,-1.25266537580484e-003°)
1.52054752973248e+000	(6.16512179603541e+001dB,-1.25555306772473e-003°)
1.52405275379728e+000	(6.16512179603588e+001dB,-1.25844741646640e-003°)
1.52756605823806e+000	(6.16512179603484e+001dB,-1.26134843736885e-003°)
1.53108746168202e+000	(6.16512179603438e+001dB,-1.26425614581596e-003°)
1.53461698279928e+000	(6.16512179603347e+001dB,-1.26717055722266e-003°)
1.53815464030302e+000	(6.16512179603156e+001dB,-1.27009168704006e-003°)
1.54170045294954e+000	(6.16512179603073e+001dB,-1.27301955075870e-003°)
1.54525443953840e+000	(6.16512179602974e+001dB,-1.27595416390005e-003°)
1.54881661891247e+000	(6.16512179602896e+001dB,-1.27889554202367e-003°)
1.55238700995807e+000	(6.16512179602811e+001dB,-1.28184370072403e-003°)
1.55596563160506e+000	(6.16512179602697e+001dB,-1.28479865563166e-003°)
1.55955250282694e+000	(6.16512179602574e+001dB,-1.28776042241375e-003°)
1.56314764264094e+000	(6.16512179602545e+001dB,-1.29072901677476e-003°)
1.56675107010813e+000	(6.16512179602415e+001dB,-1.29370445445106e-003°)
1.57036280433354e+000	(6.16512179602327e+001dB,-1.29668675122020e-003°)
1.57398286446620e+000	(6.16512179602246e+001dB,-1.29967592289352e-003°)
1.57761126969933e+000	(6.16512179602136e+001dB,-1.30267198531877e-003°)
1.58124803927037e+000	(6.16512179602019e+001dB,-1.30567495438109e-003°)
1.58489319246110e+000	(6.16512179601936e+001dB,-1.30868484600257e-003°)
1.58854674859776e+000	(6.16512179601846e+001dB,-1.31170167614072e-003°)
1.59220872705115e+000	(6.16512179601727e+001dB,-1.31472546079012e-003°)
1.59587914723672e+000	(6.16512179601687e+001dB,-1.31775621598424e-003°)
1.59955802861465e+000	(6.16512179601574e+001dB,-1.32079395778953e-003°)
1.60324539069002e+000	(6.16512179601439e+001dB,-1.32383870231258e-003°)
1.60694125301286e+000	(6.16512179601389e+001dB,-1.32689046569792e-003°)
1.61064563517825e+000	(6.16512179601268e+001dB,-1.32994926412334e-003°)
1.61435855682647e+000	(6.16512179601160e+001dB,-1.33301511380758e-003°)
1.61808003764305e+000	(6.16512179601088e+001dB,-1.33608803100577e-003°)
1.62181009735891e+000	(6.16512179600950e+001dB,-1.33916803200872e-003°)
1.62554875575047e+000	(6.16512179600905e+001dB,-1.34225513314868e-003°)
1.62929603263970e+000	(6.16512179600817e+001dB,-1.34534935079106e-003°)
1.63305194789432e+000	(6.16512179600693e+001dB,-1.34845070134123e-003°)
1.63681652142779e+000	(6.16512179600576e+001dB,-1.35155920124287e-003°)
1.64058977319952e+000	(6.16512179600458e+001dB,-1.35467486697685e-003°)
1.64437172321491e+000	(6.16512179600267e+001dB,-1.35779771506098e-003°)
1.64816239152549e+000	(6.16512179600155e+001dB,-1.36092776205466e-003°)
1.65196179822900e+000	(6.16512179600035e+001dB,-1.36406502455173e-003°)
1.65576996346951e+000	(6.16512179599957e+001dB,-1.36720951918642e-003°)
1.65958690743754e+000	(6.16512179599385e+001dB,-1.37036126262215e-003°)
1.66341265037015e+000	(6.16512179599270e+001dB,-1.37352027158402e-003°)
1.66724721255104e+000	(6.16512179599163e+001dB,-1.37668656281374e-003°)
1.67109061431069e+000	(6.16512179599033e+001dB,-1.37986015309823e-003°)
1.67494287602642e+000	(6.16512179598924e+001dB,-1.38304105926421e-003°)
1.67880401812254e+000	(6.16512179598815e+001dB,-1.38622929817620e-003°)
1.68267406107045e+000	(6.16512179598719e+001dB,-1.38942488673815e-003°)
1.68655302538872e+000	(6.16512179598630e+001dB,-1.39262784189264e-003°)
1.69044093164324e+000	(6.16512179598498e+001dB,-1.39583818062064e-003°)
1.69433780044731e+000	(6.16512179598392e+001dB,-1.39905591994415e-003°)
1.69824365246172e+000	(6.16512179598251e+001dB,-1.40228107692227e-003°)
1.70215850839493e+000	(6.16512179598067e+001dB,-1.40551366865439e-003°)
1.70608238900310e+000	(6.16512179597983e+001dB,-1.40875371228165e-003°)
1.71001531509027e+000	(6.16512179597869e+001dB,-1.41200122498041e-003°)
1.71395730750840e+000	(6.16512179597740e+001dB,-1.41525622396884e-003°)
1.71790838715757e+000	(6.16512179597683e+001dB,-1.41851872650602e-003°)
1.72186857498599e+000	(6.16512179597546e+001dB,-1.42178874988702e-003°)
1.72583789199018e+000	(6.16512179597437e+001dB,-1.42506631145086e-003°)
1.72981635921508e+000	(6.16512179597306e+001dB,-1.42835142857410e-003°)
1.73380399775412e+000	(6.16512179597182e+001dB,-1.43164411867450e-003°)
1.73780082874935e+000	(6.16512179597064e+001dB,-1.43494439920961e-003°)
1.74180687339159e+000	(6.16512179596968e+001dB,-1.43825228767743e-003°)
1.74582215292048e+000	(6.16512179596856e+001dB,-1.44156780161545e-003°)
1.74984668862464e+000	(6.16512179596729e+001dB,-1.44489095860221e-003°)
1.75388050184174e+000	(6.16512179596609e+001dB,-1.44822177625709e-003°)
1.75792361395867e+000	(6.16512179596525e+001dB,-1.45156027224025e-003°)
1.76197604641161e+000	(6.16512179596339e+001dB,-1.45490646424980e-003°)
1.76603782068614e+000	(6.16512179596253e+001dB,-1.45826037003024e-003°)
1.77010895831740e+000	(6.16512179596116e+001dB,-1.46162200736117e-003°)
1.77418948089014e+000	(6.16512179596036e+001dB,-1.46499139406741e-003°)
1.77827941003890e+000	(6.16512179595956e+001dB,-1.46836854801218e-003°)
1.78237876744807e+000	(6.16512179595767e+001dB,-1.47175348709901e-003°)
1.78648757485203e+000	(6.16512179595664e+001dB,-1.47514622927774e-003°)
1.79060585403527e+000	(6.16512179595560e+001dB,-1.47854679253492e-003°)
1.79473362683250e+000	(6.16512179595305e+001dB,-1.48195519489745e-003°)
1.79887091512876e+000	(6.16512179595171e+001dB,-1.48537145444095e-003°)
1.80301774085955e+000	(6.16512179595066e+001dB,-1.48879558927650e-003°)
1.80717412601090e+000	(6.16512179594959e+001dB,-1.49222761755806e-003°)
1.81134009261958e+000	(6.16512179594967e+001dB,-1.49566755748383e-003°)
1.81551566277311e+000	(6.16512179594666e+001dB,-1.49911542728485e-003°)
1.81970085860996e+000	(6.16512179594572e+001dB,-1.50257124525014e-003°)
1.82389570231961e+000	(6.16512179594563e+001dB,-1.50603502970009e-003°)
1.82810021614272e+000	(6.16512179594447e+001dB,-1.50950679899597e-003°)
1.83231442237119e+000	(6.16512179594308e+001dB,-1.51298657154625e-003°)
1.83653834334832e+000	(6.16512179594176e+001dB,-1.51647436580084e-003°)
1.84077200146893e+000	(6.16512179594029e+001dB,-1.51997020025128e-003°)
1.84501541917945e+000	(6.16512179593716e+001dB,-1.52347409342955e-003°)
1.84926861897805e+000	(6.16512179593553e+001dB,-1.52698606391838e-003°)
1.85353162341479e+000	(6.16512179593547e+001dB,-1.53050613033807e-003°)
1.85780445509167e+000	(6.16512179593440e+001dB,-1.53403431134713e-003°)
1.86208713666284e+000	(6.16512179593275e+001dB,-1.53757062565238e-003°)
1.86637969083464e+000	(6.16512179593182e+001dB,-1.54111509200527e-003°)
1.87068214036577e+000	(6.16512179593073e+001dB,-1.54466772919670e-003°)
