Freq.	V(d5+)	V(d5u)
1.00000000000000e+000	(-5.40816203153880e+001dB,6.15015980395373e-004°)	(-6.11477735600288e+001dB,6.10421007574368e-004°)
1.00230523807790e+000	(-5.40816203153545e+001dB,6.16433738649626e-004°)	(-6.11477735600270e+001dB,6.11828173324491e-004°)
1.00461579027840e+000	(-5.40816203153444e+001dB,6.17854765176440e-004°)	(-6.11477735600251e+001dB,6.13238582926675e-004°)
1.00693166885180e+000	(-5.40816203153498e+001dB,6.19279067507582e-004°)	(-6.11477735600219e+001dB,6.14652243858732e-004°)
1.00925288607668e+000	(-5.40816203153631e+001dB,6.20706653195961e-004°)	(-6.11477735600206e+001dB,6.16069163615868e-004°)
1.01157945425990e+000	(-5.40816203153451e+001dB,6.22137529806973e-004°)	(-6.11477735600173e+001dB,6.17489349710311e-004°)
1.01391138573668e+000	(-5.40816203153272e+001dB,6.23571704929710e-004°)	(-6.11477735600159e+001dB,6.18912809671883e-004°)
1.01624869287070e+000	(-5.40816203153404e+001dB,6.25009186168785e-004°)	(-6.11477735600131e+001dB,6.20339551047510e-004°)
1.01859138805412e+000	(-5.40816203153458e+001dB,6.26449981144574e-004°)	(-6.11477735600097e+001dB,6.21769581401662e-004°)
1.02093948370768e+000	(-5.40816203153200e+001dB,6.27894097492871e-004°)	(-6.11477735600083e+001dB,6.23202908316313e-004°)
1.02329299228075e+000	(-5.40816203153488e+001dB,6.29341542877480e-004°)	(-6.11477735600060e+001dB,6.24639539390712e-004°)
1.02565192625141e+000	(-5.40816203153308e+001dB,6.30792324964924e-004°)	(-6.11477735600031e+001dB,6.26079482241740e-004°)
1.02801629812647e+000	(-5.40816203153284e+001dB,6.32246451451305e-004°)	(-6.11477735600012e+001dB,6.27522744503901e-004°)
1.03038612044162e+000	(-5.40816203153259e+001dB,6.33703930045831e-004°)	(-6.11477735599979e+001dB,6.28969333829127e-004°)
1.03276140576140e+000	(-5.40816203153313e+001dB,6.35164768475665e-004°)	(-6.11477735599964e+001dB,6.30419257887221e-004°)
1.03514216667934e+000	(-5.40816203153054e+001dB,6.36628974483868e-004°)	(-6.11477735599935e+001dB,6.31872524365405e-004°)
1.03752841581801e+000	(-5.40816203153342e+001dB,6.38096555839755e-004°)	(-6.11477735599920e+001dB,6.33329140968866e-004°)
1.03992016582906e+000	(-5.40816203153239e+001dB,6.39567520316765e-004°)	(-6.11477735599890e+001dB,6.34789115420337e-004°)
1.04231742939330e+000	(-5.40816203153370e+001dB,6.41041875719137e-004°)	(-6.11477735599857e+001dB,6.36252455460485e-004°)
1.04472021922080e+000	(-5.40816203153032e+001dB,6.42519629858513e-004°)	(-6.11477735599841e+001dB,6.37719168847884e-004°)
1.04712854805090e+000	(-5.40816203152851e+001dB,6.44000790573496e-004°)	(-6.11477735599811e+001dB,6.39189263358778e-004°)
1.04954242865232e+000	(-5.40816203153294e+001dB,6.45485365721264e-004°)	(-6.11477735599796e+001dB,6.40662746787570e-004°)
1.05196187382322e+000	(-5.40816203152956e+001dB,6.46973363162550e-004°)	(-6.11477735599771e+001dB,6.42139626946431e-004°)
1.05438689639126e+000	(-5.40816203153009e+001dB,6.48464790795032e-004°)	(-6.11477735599741e+001dB,6.43619911665656e-004°)
1.05681750921366e+000	(-5.40816203153061e+001dB,6.49959656523512e-004°)	(-6.11477735599711e+001dB,6.45103608793577e-004°)
1.05925372517729e+000	(-5.40816203153192e+001dB,6.51457968274208e-004°)	(-6.11477735599680e+001dB,6.46590726196612e-004°)
1.06169555719872e+000	(-5.40816203153088e+001dB,6.52959733987824e-004°)	(-6.11477735599660e+001dB,6.48081271759348e-004°)
1.06414301822431e+000	(-5.40816203152906e+001dB,6.54464961628763e-004°)	(-6.11477735599634e+001dB,6.49575253384457e-004°)
1.06659612123026e+000	(-5.40816203152957e+001dB,6.55973659179468e-004°)	(-6.11477735599613e+001dB,6.51072678992909e-004°)
1.06905487922266e+000	(-5.40816203152853e+001dB,6.57485834635919e-004°)	(-6.11477735599583e+001dB,6.52573556523859e-004°)
1.07151930523761e+000	(-5.40816203152749e+001dB,6.59001496016974e-004°)	(-6.11477735599552e+001dB,6.54077893934837e-004°)
1.07398941234124e+000	(-5.40816203152800e+001dB,6.60520651359586e-004°)	(-6.11477735599535e+001dB,6.55585699201751e-004°)
1.07646521362983e+000	(-5.40816203152539e+001dB,6.62043308713983e-004°)	(-6.11477735599504e+001dB,6.57096980318727e-004°)
1.07894672222983e+000	(-5.40816203152747e+001dB,6.63569476160711e-004°)	(-6.11477735599473e+001dB,6.58611745298476e-004°)
1.08143395129794e+000	(-5.40816203152876e+001dB,6.65099161784987e-004°)	(-6.11477735599451e+001dB,6.60130002172171e-004°)
1.08392691402120e+000	(-5.40816203152693e+001dB,6.66632373697503e-004°)	(-6.11477735599424e+001dB,6.61651758989411e-004°)
1.08642562361706e+000	(-5.40816203152588e+001dB,6.68169120028736e-004°)	(-6.11477735599402e+001dB,6.63177023818424e-004°)
1.08893009333343e+000	(-5.40816203152560e+001dB,6.69709408926476e-004°)	(-6.11477735599371e+001dB,6.64705804745966e-004°)
1.09144033644876e+000	(-5.40816203152611e+001dB,6.71253248557294e-004°)	(-6.11477735599344e+001dB,6.66238109877528e-004°)
1.09395636627209e+000	(-5.40816203152740e+001dB,6.72800647106746e-004°)	(-6.11477735599317e+001dB,6.67773947337226e-004°)
1.09647819614318e+000	(-5.40816203152322e+001dB,6.74351612774470e-004°)	(-6.11477735599289e+001dB,6.69313325267917e-004°)
1.09900583943252e+000	(-5.40816203152684e+001dB,6.75906153792353e-004°)	(-6.11477735599267e+001dB,6.70856251831247e-004°)
1.10153930954141e+000	(-5.40816203152422e+001dB,6.77464278393580e-004°)	(-6.11477735599235e+001dB,6.72402735207609e-004°)
1.10407861990207e+000	(-5.40816203152706e+001dB,6.79025994846343e-004°)	(-6.11477735599212e+001dB,6.73952783596362e-004°)
1.10662378397766e+000	(-5.40816203152366e+001dB,6.80591311423760e-004°)	(-6.11477735599184e+001dB,6.75506405215678e-004°)
1.10917481526240e+000	(-5.40816203152650e+001dB,6.82160236431953e-004°)	(-6.11477735599156e+001dB,6.77063608302702e-004°)
1.11173172728159e+000	(-5.40816203152622e+001dB,6.83732778184367e-004°)	(-6.11477735599119e+001dB,6.78624401113538e-004°)
1.11429453359173e+000	(-5.40816203152515e+001dB,6.85308945018986e-004°)	(-6.11477735599096e+001dB,6.80188791923448e-004°)
1.11686324778056e+000	(-5.40816203152486e+001dB,6.86888745294048e-004°)	(-6.11477735599062e+001dB,6.81756789026583e-004°)
1.11943788346715e+000	(-5.40816203152614e+001dB,6.88472187385746e-004°)	(-6.11477735599043e+001dB,6.83328400736400e-004°)
1.12201845430196e+000	(-5.40816203152272e+001dB,6.90059279685162e-004°)	(-6.11477735599015e+001dB,6.84903635385340e-004°)
1.12460497396692e+000	(-5.40816203152087e+001dB,6.91650030611592e-004°)	(-6.11477735598986e+001dB,6.86482501325173e-004°)
1.12719745617551e+000	(-5.40816203152370e+001dB,6.93244448600447e-004°)	(-6.11477735598943e+001dB,6.88065006926832e-004°)
1.12979591467280e+000	(-5.40816203152263e+001dB,6.94842542100286e-004°)	(-6.11477735598924e+001dB,6.89651160580750e-004°)
1.13240036323556e+000	(-5.40816203152155e+001dB,6.96444319586090e-004°)	(-6.11477735598895e+001dB,6.91240970696436e-004°)
1.13501081567231e+000	(-5.40816203152360e+001dB,6.98049789552104e-004°)	(-6.11477735598871e+001dB,6.92834445702951e-004°)
1.13762728582343e+000	(-5.40816203152018e+001dB,6.99658960504589e-004°)	(-6.11477735598832e+001dB,6.94431594048672e-004°)
1.14024978756117e+000	(-5.40816203152066e+001dB,7.01271840982298e-004°)	(-6.11477735598802e+001dB,6.96032424201609e-004°)
1.14287833478977e+000	(-5.40816203151958e+001dB,7.02888439532139e-004°)	(-6.11477735598777e+001dB,6.97636944649195e-004°)
1.14551294144553e+000	(-5.40816203152240e+001dB,7.04508764730220e-004°)	(-6.11477735598752e+001dB,6.99245163898407e-004°)
1.14815362149688e+000	(-5.40816203152132e+001dB,7.06132825159452e-004°)	(-6.11477735598718e+001dB,7.00857090475837e-004°)
1.15080038894443e+000	(-5.40816203151867e+001dB,7.07760629434252e-004°)	(-6.11477735598692e+001dB,7.02472732927826e-004°)
1.15345325782109e+000	(-5.40816203151914e+001dB,7.09392186187973e-004°)	(-6.11477735598662e+001dB,7.04092099820297e-004°)
1.15611224219210e+000	(-5.40816203151728e+001dB,7.11027504066482e-004°)	(-6.11477735598627e+001dB,7.05715199738960e-004°)
1.15877735615512e+000	(-5.40816203151853e+001dB,7.12666591744690e-004°)	(-6.11477735598592e+001dB,7.07342041289370e-004°)
1.16144861384034e+000	(-5.40816203151900e+001dB,7.14309457908628e-004°)	(-6.11477735598567e+001dB,7.08972633096904e-004°)
1.16412602941049e+000	(-5.40816203151947e+001dB,7.15956111271002e-004°)	(-6.11477735598531e+001dB,7.10606983806719e-004°)
1.16680961706096e+000	(-5.40816203151759e+001dB,7.17606560559121e-004°)	(-6.11477735598510e+001dB,7.12245102084084e-004°)
1.16949939101987e+000	(-5.40816203151806e+001dB,7.19260814528277e-004°)	(-6.11477735598469e+001dB,7.13886996613997e-004°)
1.17219536554813e+000	(-5.40816203151618e+001dB,7.20918881944808e-004°)	(-6.11477735598443e+001dB,7.15532676101755e-004°)
1.17489755493953e+000	(-5.40816203151587e+001dB,7.22580771601856e-004°)	(-6.11477735598407e+001dB,7.17182149272497e-004°)
1.17760597352080e+000	(-5.40816203151789e+001dB,7.24246492312202e-004°)	(-6.11477735598375e+001dB,7.18835424871612e-004°)
1.18032063565173e+000	(-5.40816203151757e+001dB,7.25916052904687e-004°)	(-6.11477735598339e+001dB,7.20492511664572e-004°)
1.18304155572516e+000	(-5.40816203151412e+001dB,7.27589462228042e-004°)	(-6.11477735598317e+001dB,7.22153418437172e-004°)
1.18576874816716e+000	(-5.40816203151380e+001dB,7.29266729161401e-004°)	(-6.11477735598285e+001dB,7.23818153995258e-004°)
1.18850222743702e+000	(-5.40816203151426e+001dB,7.30947862594805e-004°)	(-6.11477735598262e+001dB,7.25486727165188e-004°)
1.19124200802737e+000	(-5.40816203151627e+001dB,7.32632871442079e-004°)	(-6.11477735598226e+001dB,7.27159146793463e-004°)
1.19398810446427e+000	(-5.40816203151438e+001dB,7.34321764632940e-004°)	(-6.11477735598188e+001dB,7.28835421747142e-004°)
1.19674053130724e+000	(-5.40816203151405e+001dB,7.36014551126526e-004°)	(-6.11477735598161e+001dB,7.30515560913712e-004°)
1.19949930314938e+000	(-5.40816203151450e+001dB,7.37711239895918e-004°)	(-6.11477735598128e+001dB,7.32199573201045e-004°)
1.20226443461741e+000	(-5.40816203151261e+001dB,7.39411839935375e-004°)	(-6.11477735598095e+001dB,7.33887467537626e-004°)
1.20503594037179e+000	(-5.40816203151540e+001dB,7.41116360265977e-004°)	(-6.11477735598057e+001dB,7.35579252872478e-004°)
1.20781383510678e+000	(-5.40816203151506e+001dB,7.42824809919471e-004°)	(-6.11477735598024e+001dB,7.37274938175326e-004°)
1.21059813355048e+000	(-5.40816203151317e+001dB,7.44537197955057e-004°)	(-6.11477735598001e+001dB,7.38974532436541e-004°)
1.21338885046497e+000	(-5.40816203151283e+001dB,7.46253533454232e-004°)	(-6.11477735597958e+001dB,7.40678044667079e-004°)
1.21618600064636e+000	(-5.40816203151249e+001dB,7.47973825515074e-004°)	(-6.11477735597929e+001dB,7.42385483898940e-004°)
1.21898959892486e+000	(-5.40816203151293e+001dB,7.49698083259664e-004°)	(-6.11477735597900e+001dB,7.44096859184738e-004°)
1.22179966016487e+000	(-5.40816203151180e+001dB,7.51426315827295e-004°)	(-6.11477735597856e+001dB,7.45812179597935e-004°)
1.22461619926504e+000	(-5.40816203151068e+001dB,7.53158532382498e-004°)	(-6.11477735597823e+001dB,7.47531454233109e-004°)
1.22743923115840e+000	(-5.40816203150955e+001dB,7.54894742108615e-004°)	(-6.11477735597789e+001dB,7.49254692205640e-004°)
1.23026877081238e+000	(-5.40816203150842e+001dB,7.56634954212777e-004°)	(-6.11477735597754e+001dB,7.50981902651960e-004°)
1.23310483322890e+000	(-5.40816203151119e+001dB,7.58379177921546e-004°)	(-6.11477735597724e+001dB,7.52713094729591e-004°)
1.23594743344451e+000	(-5.40816203151162e+001dB,7.60127422481774e-004°)	(-6.11477735597685e+001dB,7.54448277617070e-004°)
1.23879658653036e+000	(-5.40816203150971e+001dB,7.61879697158566e-004°)	(-6.11477735597655e+001dB,7.56187460514258e-004°)
1.24165230759241e+000	(-5.40816203150857e+001dB,7.63636011245793e-004°)	(-6.11477735597615e+001dB,7.57930652642042e-004°)
1.24451461177138e+000	(-5.40816203150978e+001dB,7.65396374057975e-004°)	(-6.11477735597585e+001dB,7.59677863242736e-004°)
1.24738351424294e+000	(-5.40816203150942e+001dB,7.67160794923960e-004°)	(-6.11477735597545e+001dB,7.61429101579796e-004°)
1.25025903021771e+000	(-5.40816203150906e+001dB,7.68929283199562e-004°)	(-6.11477735597514e+001dB,7.63184376938187e-004°)
1.25314117494141e+000	(-5.40816203150714e+001dB,7.70701848260994e-004°)	(-6.11477735597483e+001dB,7.64943698624175e-004°)
1.25602996369487e+000	(-5.40816203150912e+001dB,7.72478499510322e-004°)	(-6.11477735597443e+001dB,7.66707075965463e-004°)
1.25892541179416e+000	(-5.40816203150563e+001dB,7.74259246359113e-004°)	(-6.11477735597412e+001dB,7.68474518311383e-004°)
1.26182753459066e+000	(-5.40816203150683e+001dB,7.76044098257191e-004°)	(-6.11477735597361e+001dB,7.70246035032611e-004°)
1.26473634747115e+000	(-5.40816203150724e+001dB,7.77833064662499e-004°)	(-6.11477735597330e+001dB,7.72021635521728e-004°)
1.26765186585784e+000	(-5.40816203150453e+001dB,7.79626155059399e-004°)	(-6.11477735597298e+001dB,7.73801329192697e-004°)
1.27057410520854e+000	(-5.40816203150650e+001dB,7.81423378960049e-004°)	(-6.11477735597262e+001dB,7.75585125481269e-004°)
1.27350308101666e+000	(-5.40816203150691e+001dB,7.83224745889398e-004°)	(-6.11477735597220e+001dB,7.77373033844939e-004°)
1.27643880881134e+000	(-5.40816203150575e+001dB,7.85030265396261e-004°)	(-6.11477735597183e+001dB,7.79165063763065e-004°)
1.27938130415752e+000	(-5.40816203150538e+001dB,7.86839947056250e-004°)	(-6.11477735597150e+001dB,7.80961224736823e-004°)
1.28233058265602e+000	(-5.40816203150187e+001dB,7.88653800460279e-004°)	(-6.11477735597113e+001dB,7.82761526289226e-004°)
1.28528665994361e+000	(-5.40816203150306e+001dB,7.90471835231908e-004°)	(-6.11477735597076e+001dB,7.84565977965315e-004°)
1.28824955169313e+000	(-5.40816203150346e+001dB,7.92294061007002e-004°)	(-6.11477735597034e+001dB,7.86374589332100e-004°)
1.29121927361353e+000	(-5.40816203150307e+001dB,7.94120487444919e-004°)	(-6.11477735596995e+001dB,7.88187369978688e-004°)
1.29419584144998e+000	(-5.40816203150113e+001dB,7.95951124229305e-004°)	(-6.11477735596958e+001dB,7.90004329516250e-004°)
1.29717927098395e+000	(-5.40816203150152e+001dB,7.97785981069610e-004°)	(-6.11477735596919e+001dB,7.91825477578129e-004°)
1.30016957803328e+000	(-5.40816203150191e+001dB,7.99625067691324e-004°)	(-6.11477735596886e+001dB,7.93650823819885e-004°)
1.30316677845229e+000	(-5.40816203150074e+001dB,8.01468393845061e-004°)	(-6.11477735596843e+001dB,7.95480377919254e-004°)
1.30617088813183e+000	(-5.40816203150113e+001dB,8.03315969304374e-004°)	(-6.11477735596809e+001dB,7.97314149576433e-004°)
1.30918192299940e+000	(-5.40816203150152e+001dB,8.05167803866399e-004°)	(-6.11477735596775e+001dB,7.99152148513873e-004°)
1.31219989901920e+000	(-5.40816203149878e+001dB,8.07023907344468e-004°)	(-6.11477735596726e+001dB,8.00994384476375e-004°)
1.31522483219223e+000	(-5.40816203150228e+001dB,8.08884289588512e-004°)	(-6.11477735596687e+001dB,8.02840867231412e-004°)
1.31825673855640e+000	(-5.40816203149954e+001dB,8.10748960450770e-004°)	(-6.11477735596648e+001dB,8.04691606568807e-004°)
1.32129563418657e+000	(-5.40816203149914e+001dB,8.12617929826144e-004°)	(-6.11477735596608e+001dB,8.06546612300993e-004°)
1.32434153519466e+000	(-5.40816203149796e+001dB,8.14491207620269e-004°)	(-6.11477735596569e+001dB,8.08405894263025e-004°)
1.32739445772973e+000	(-5.40816203150224e+001dB,8.16368803769843e-004°)	(-6.11477735596529e+001dB,8.10269462312635e-004°)
1.33045441797808e+000	(-5.40816203149871e+001dB,8.18250728219125e-004°)	(-6.11477735596488e+001dB,8.12137326330257e-004°)
1.33352143216332e+000	(-5.40816203149830e+001dB,8.20136990954876e-004°)	(-6.11477735596448e+001dB,8.14009496219150e-004°)
1.33659551654643e+000	(-5.40816203149711e+001dB,8.22027601974210e-004°)	(-6.11477735596417e+001dB,8.15885981905394e-004°)
1.33967668742593e+000	(-5.40816203149591e+001dB,8.23922571302434e-004°)	(-6.11477735596377e+001dB,8.17766793337854e-004°)
1.34276496113786e+000	(-5.40816203149628e+001dB,8.25821908987083e-004°)	(-6.11477735596326e+001dB,8.19651940488397e-004°)
1.34586035405594e+000	(-5.40816203149664e+001dB,8.27725625098327e-004°)	(-6.11477735596294e+001dB,8.21541433352017e-004°)
1.34896288259164e+000	(-5.40816203149622e+001dB,8.29633729727135e-004°)	(-6.11477735596244e+001dB,8.23435281946447e-004°)
1.35207256319427e+000	(-5.40816203149346e+001dB,8.31546232989790e-004°)	(-6.11477735596202e+001dB,8.25333496312813e-004°)
1.35518941235103e+000	(-5.40816203149382e+001dB,8.33463145029169e-004°)	(-6.11477735596166e+001dB,8.27236086515244e-004°)
1.35831344658715e+000	(-5.40816203149340e+001dB,8.35384476007506e-004°)	(-6.11477735596123e+001dB,8.29143062641021e-004°)
1.36144468246594e+000	(-5.40816203149219e+001dB,8.37310236109969e-004°)	(-6.11477735596081e+001dB,8.31054434800778e-004°)
1.36458313658892e+000	(-5.40816203149332e+001dB,8.39240435550788e-004°)	(-6.11477735596044e+001dB,8.32970213128443e-004°)
1.36772882559584e+000	(-5.40816203149211e+001dB,8.41175084557980e-004°)	(-6.11477735596002e+001dB,8.34890407781233e-004°)
1.37088176616484e+000	(-5.40816203149090e+001dB,8.43114193392634e-004°)	(-6.11477735595954e+001dB,8.36815028939826e-004°)
1.37404197501251e+000	(-5.40816203149203e+001dB,8.45057772335939e-004°)	(-6.11477735595907e+001dB,8.38744086808402e-004°)
1.37720946889394e+000	(-5.40816203149315e+001dB,8.47005831692124e-004°)	(-6.11477735595869e+001dB,8.40677591614670e-004°)
1.38038426460288e+000	(-5.40816203149193e+001dB,8.48958381786581e-004°)	(-6.11477735595825e+001dB,8.42615553609814e-004°)
1.38356637897177e+000	(-5.40816203148993e+001dB,8.50915432972933e-004°)	(-6.11477735595782e+001dB,8.44557983068750e-004°)
1.38675582887188e+000	(-5.40816203148715e+001dB,8.52876995627683e-004°)	(-6.11477735595743e+001dB,8.46504890290050e-004°)
1.38995263121334e+000	(-5.40816203148826e+001dB,8.54843080155342e-004°)	(-6.11477735595690e+001dB,8.48456285595946e-004°)
1.39315680294529e+000	(-5.40816203148860e+001dB,8.56813696974002e-004°)	(-6.11477735595656e+001dB,8.50412179332692e-004°)
1.39636836105593e+000	(-5.40816203148893e+001dB,8.58788856534828e-004°)	(-6.11477735595607e+001dB,8.52372581870089e-004°)
1.39958732257261e+000	(-5.40816203148848e+001dB,8.60768569307536e-004°)	(-6.11477735595558e+001dB,8.54337503602059e-004°)
1.40281370456195e+000	(-5.40816203148803e+001dB,8.62752845789316e-004°)	(-6.11477735595513e+001dB,8.56306954946450e-004°)
1.40604752412990e+000	(-5.40816203148679e+001dB,8.64741696500144e-004°)	(-6.11477735595473e+001dB,8.58280946345082e-004°)
1.40928879842186e+000	(-5.40816203148712e+001dB,8.66735131986598e-004°)	(-6.11477735595428e+001dB,8.60259488263835e-004°)
1.41253754462274e+000	(-5.40816203148744e+001dB,8.68733162817002e-004°)	(-6.11477735595378e+001dB,8.62242591192734e-004°)
1.41579377995707e+000	(-5.40816203148464e+001dB,8.70735799581009e-004°)	(-6.11477735595332e+001dB,8.64230265646038e-004°)
1.41905752168908e+000	(-5.40816203148573e+001dB,8.72743052903021e-004°)	(-6.11477735595296e+001dB,8.66222522162224e-004°)
1.42232878712281e+000	(-5.40816203148605e+001dB,8.74754933421562e-004°)	(-6.11477735595250e+001dB,8.68219371303939e-004°)
1.42560759360218e+000	(-5.40816203148558e+001dB,8.76771451802769e-004°)	(-6.11477735595195e+001dB,8.70220823658288e-004°)
1.42889395851109e+000	(-5.40816203148433e+001dB,8.78792618738010e-004°)	(-6.11477735595154e+001dB,8.72226889836881e-004°)
1.43218789927353e+000	(-5.40816203148308e+001dB,8.80818444943800e-004°)	(-6.11477735595102e+001dB,8.74237580475556e-004°)
1.43548943335364e+000	(-5.40816203148183e+001dB,8.82848941162265e-004°)	(-6.11477735595055e+001dB,8.76252906234887e-004°)
1.43879857825583e+000	(-5.40816203148603e+001dB,8.84884118161903e-004°)	(-6.11477735595013e+001dB,8.78272877799917e-004°)
1.44211535152486e+000	(-5.40816203148556e+001dB,8.86923986725809e-004°)	(-6.11477735594956e+001dB,8.80297505880239e-004°)
1.44543977074592e+000	(-5.40816203148117e+001dB,8.88968557667800e-004°)	(-6.11477735594914e+001dB,8.82326801210383e-004°)
1.44877185354475e+000	(-5.40816203148225e+001dB,8.91017841838277e-004°)	(-6.11477735594876e+001dB,8.84360774549409e-004°)
